T0F4C 3640:782 SEGGER J-Link V6.46 Log File (0001ms, 4159ms total)
T0F4C 3640:782 DLL Compiled: May 23 2019 17:49:56 (0001ms, 4159ms total)
T0F4C 3640:782 Logging started @ 2019-10-24 14:49 (0001ms, 4159ms total)
T0F4C 3640:783 JLINK_SetWarnOutHandler(...) (0000ms, 4159ms total)
T0F4C 3640:783 JLINK_OpenEx(...)
Firmware: J-Link V9 compiled Jun  2 2222 22:22:22
Hardware: V9.40
S/N: 59401308
Feature(s): GDB, RDI, FlashBP, FlashDL, JFlash, RDDI
TELNET listener socket opened on port 19021WEBSRV 
Starting webserver (0072ms, 4231ms total)
T0F4C 3640:783 WEBSRV Webserver running on local port 19080 (0072ms, 4231ms total)
T0F4C 3640:783   returns O.K. (0072ms, 4231ms total)
T0F4C 3640:855 JLINK_GetEmuCaps()  returns 0xB9FF7BBF (0000ms, 4231ms total)
T0F4C 3640:856 JLINK_TIF_GetAvailable(...) (0000ms, 4231ms total)
T0F4C 3640:856 JLINK_SetErrorOutHandler(...) (0000ms, 4231ms total)
T0F4C 3640:856 JLINK_ExecCommand("ProjectFile = "C:\Users\Administrator\Desktop\ZHDT_JFV2.1\Project\JLinkSettings.ini"", ...).   returns 0x00 (0004ms, 4235ms total)
T0F4C 3640:869 JLINK_ExecCommand("Device = STM32F103RC", ...). Device "STM32F103RC" selected.  returns 0x00 (0009ms, 4244ms total)
T0F4C 3640:878 JLINK_ExecCommand("DisableConnectionTimeout", ...).   returns 0x01 (0000ms, 4244ms total)
T0F4C 3640:878 JLINK_GetHardwareVersion()  returns 0x16F30 (0000ms, 4244ms total)
T0F4C 3640:878 JLINK_GetDLLVersion()  returns 64600 (0000ms, 4244ms total)
T0F4C 3640:878 JLINK_GetFirmwareString(...) (0000ms, 4244ms total)
T0F4C 3640:897 JLINK_GetDLLVersion()  returns 64600 (0000ms, 4244ms total)
T0F4C 3640:897 JLINK_GetCompileDateTime() (0000ms, 4244ms total)
T0F4C 3640:902 JLINK_GetFirmwareString(...) (0000ms, 4244ms total)
T0F4C 3640:907 JLINK_GetHardwareVersion()  returns 0x16F30 (0000ms, 4244ms total)
T0F4C 3640:925 JLINK_TIF_Select(JLINKARM_TIF_SWD)  returns 0x00 (0001ms, 4245ms total)
T0F4C 3640:926 JLINK_SetSpeed(5000) (0000ms, 4245ms total)
T0F4C 3640:926 JLINK_GetId() >0x10B TIF>Found SW-DP with ID 0x1BA01477 >0x0D TIF> >0x28 TIF> >0x0D TIF> >0x28 TIF> >0x0D TIF> >0x28 TIF> >0x0D TIF> >0x28 TIF> >0x0D TIF> >0x21 TIF> >0x0D TIF> >0x28 TIF> >0x0D TIF> >0x28 TIF> >0x0D TIF> >0x28 TIF> >0x0D TIF> >0x21 TIF> >0x0D TIF> >0x21 TIF> >0x0D TIF> >0x28 TIF> >0x0D TIF> >0x21 TIF> >0x0D TIF> >0x21 TIF> >0x0D TIF> >0x28 TIF> >0x0D TIF> >0x21 TIF> >0x0D TIF> >0x21 TIF> >0x0D TIF> >0x28 TIF> >0x0D TIF> >0x21 TIF> >0x0D TIF> >0x21 TIF> >0x0D TIF>
 >0x28 TIF> >0x0D TIF> >0x21 TIF> >0x0D TIF> >0x21 TIF> >0x0D TIF> >0x28 TIF> >0x0D TIF> >0x21 TIF> >0x0D TIF> >0x21 TIF> >0x0D TIF> >0x28 TIF> >0x0D TIF> >0x21 TIF> >0x0D TIF> >0x21 TIF> >0x10B TIF>Found SW-DP with ID 0x1BA01477 >0x0D TIF> >0x28 TIF> >0x0D TIF> >0x28 TIF> >0x0D TIF> >0x28 TIF> >0x0D TIF> >0x28 TIF> >0x0D TIF> >0x21 TIF> >0x0D TIF> >0x28 TIF>Scanning AP map to find all available APs >0x0D TIF> >0x28 TIF> >0x0D TIF> >0x21 TIF> >0x0D TIF> >0x21 TIF> >0x0D TIF> >0x28 TIF> >0x0D TIF>
 >0x21 TIF> >0x0D TIF> >0x21 TIF>AP[1]: Stopped AP scan as end of AP map has been reachedAP[0]: AHB-AP (IDR: 0x14770011)Iterating through AP map to find AHB-AP to use >0x42 TIF> >0x28 TIF> >0x0D TIF> >0x28 TIF> >0x0D TIF> >0x21 TIF> >0x0D TIF> >0x21 TIF> >0x42 TIF> >0x28 TIF> >0x0D TIF> >0x28 TIF> >0x0D TIF> >0x28 TIF> >0x0D TIF> >0x21 TIF> >0x0D TIF> >0x21 TIF>AP[0]: Core foundAP[0]: AHB-AP ROM base: 0xE00FF000 >0x0D TIF> >0x28 TIF> >0x0D TIF> >0x28 TIF> >0x0D TIF> >0x28 TIF> >0x0D TIF> >0x21 TIF>
 >0x0D TIF> >0x21 TIF>CPUID register: 0x411FC231. Implementer code: 0x41 (ARM)Found Cortex-M3 r1p1, Little endian. -- Max. mem block: 0x00010FB0 -- CPU_ReadMem(4 bytes @ 0xE000EDF0) -- CPU_WriteMem(4 bytes @ 0xE000EDF0) -- CPU_ReadMem(4 bytes @ 0xE0002000)FPUnit: 6 code (BP) slots and 2 literal slots -- CPU_ReadMem(4 bytes @ 0xE000EDFC) -- CPU_WriteMem(4 bytes @ 0xE000EDFC) -- CPU_ReadMem(4 bytes @ 0xE0001000) -- CPU_WriteMem(4 bytes @ 0xE0001000) -- CPU_ReadMem(4 bytes @ 0xE000ED88)
 -- CPU_WriteMem(4 bytes @ 0xE000ED88) -- CPU_ReadMem(4 bytes @ 0xE000ED88) -- CPU_WriteMem(4 bytes @ 0xE000ED88)CoreSight components:ROMTbl[0] @ E00FF000 -- CPU_ReadMem(16 bytes @ 0xE00FF000) -- CPU_ReadMem(16 bytes @ 0xE000EFF0) -- CPU_ReadMem(16 bytes @ 0xE000EFE0)ROMTbl[0][0]: E000E000, CID: B105E00D, PID: 001BB000 SCS -- CPU_ReadMem(16 bytes @ 0xE0001FF0) -- CPU_ReadMem(16 bytes @ 0xE0001FE0)ROMTbl[0][1]: E0001000, CID: B105E00D, PID: 001BB002 DWT -- CPU_ReadMem(16 bytes @ 0xE0002FF0)
 -- CPU_ReadMem(16 bytes @ 0xE0002FE0)ROMTbl[0][2]: E0002000, CID: B105E00D, PID: 000BB003 FPB -- CPU_ReadMem(16 bytes @ 0xE0000FF0) -- CPU_ReadMem(16 bytes @ 0xE0000FE0)ROMTbl[0][3]: E0000000, CID: B105E00D, PID: 001BB001 ITM -- CPU_ReadMem(16 bytes @ 0xE00FF010) -- CPU_ReadMem(16 bytes @ 0xE0040FF0) -- CPU_ReadMem(16 bytes @ 0xE0040FE0)ROMTbl[0][4]: E0040000, CID: B105900D, PID: 001BB923 TPIU-Lite -- CPU_ReadMem(16 bytes @ 0xE0041FF0) -- CPU_ReadMem(16 bytes @ 0xE0041FE0)
ROMTbl[0][5]: E0041000, CID: B105900D, PID: 101BB924 ETM-M3 >0x0D TIF> >0x21 TIF>  returns 0x1BA01477 (0222ms, 4467ms total)
T0F4C 3641:148 JLINK_GetDLLVersion()  returns 64600 (0000ms, 4467ms total)
T0F4C 3641:148 JLINK_CORE_GetFound()  returns 0x30000FF (0001ms, 4468ms total)
T0F4C 3641:149 JLINK_GetDebugInfo(0x100 = JLINKARM_ROM_TABLE_ADDR_INDEX) -- Value=0xE00FF000  returns 0x00 (0000ms, 4468ms total)
T0F4C 3641:152 JLINK_GetDebugInfo(0x100 = JLINKARM_ROM_TABLE_ADDR_INDEX) -- Value=0xE00FF000  returns 0x00 (0000ms, 4468ms total)
T0F4C 3641:152 JLINK_GetDebugInfo(0x101 = JLINKARM_DEBUG_INFO_ETM_ADDR_INDEX) -- Value=0xE0041000  returns 0x00 (0002ms, 4470ms total)
T0F4C 3641:154 JLINK_ReadMemEx(0xE0041FD0, 0x0020 Bytes, ..., Flags = 0x02000004) -- CPU_ReadMem(32 bytes @ 0xE0041FD0) - Data: 04 00 00 00 00 00 00 00 00 00 00 00 00 00 00 00 ...  returns 0x20 (0000ms, 4470ms total)
T0F4C 3641:154 JLINK_GetDebugInfo(0x102 = JLINKARM_DEBUG_INFO_MTB_ADDR_INDEX) -- Value=0x00000000  returns 0x00 (0000ms, 4470ms total)
T0F4C 3641:154 JLINK_GetDebugInfo(0x103 = JLINKARM_DEBUG_INFO_TPIU_ADDR_INDEX) -- Value=0xE0040000  returns 0x00 (0000ms, 4470ms total)
T0F4C 3641:154 JLINK_GetDebugInfo(0x104 = JLINKARM_DEBUG_INFO_ITM_ADDR_INDEX) -- Value=0xE0000000  returns 0x00 (0000ms, 4470ms total)
T0F4C 3641:154 JLINK_GetDebugInfo(0x105 = JLINKARM_DEBUG_INFO_DWT_ADDR_INDEX) -- Value=0xE0001000  returns 0x00 (0000ms, 4470ms total)
T0F4C 3641:154 JLINK_GetDebugInfo(0x106 = JLINKARM_DEBUG_INFO_FPB_ADDR_INDEX) -- Value=0xE0002000  returns 0x00 (0000ms, 4470ms total)
T0F4C 3641:154 JLINK_GetDebugInfo(0x107 = JLINKARM_DEBUG_INFO_NVIC_ADDR_INDEX) -- Value=0xE000E000  returns 0x00 (0000ms, 4470ms total)
T0F4C 3641:154 JLINK_GetDebugInfo(0x10C = JLINKARM_DEBUG_INFO_DBG_ADDR_INDEX) -- Value=0xE000EDF0  returns 0x00 (0000ms, 4470ms total)
T0F4C 3641:154 JLINK_GetDebugInfo(0x01 = Unknown) -- Value=0x00000000  returns 0x00 (0000ms, 4470ms total)
T0F4C 3641:154 JLINK_ReadMemU32(0xE000ED00, 0x0001 Items, ...) -- CPU_ReadMem(4 bytes @ 0xE000ED00) - Data: 31 C2 1F 41  returns 1 (0001ms, 4471ms total)
T0F4C 3641:155 JLINK_GetDebugInfo(0x10F = JLINKARM_DEBUG_INFO_HAS_CORTEX_M_SECURITY_EXT_INDEX) -- Value=0x00000000  returns 0x00 (0000ms, 4471ms total)
T0F4C 3641:155 JLINK_SetResetType(JLINKARM_CM3_RESET_TYPE_NORMAL)  returns JLINKARM_CM3_RESET_TYPE_NORMAL (0000ms, 4471ms total)
T0F4C 3641:155 JLINK_Reset() -- CPU is running -- CPU_WriteMem(4 bytes @ 0xE000EDF0) -- CPU is running -- CPU_WriteMem(4 bytes @ 0xE000EDFC)Reset: Halt core after reset via DEMCR.VC_CORERESET. >0x35 TIF>Reset: Reset device via AIRCR.SYSRESETREQ. -- CPU is running -- CPU_WriteMem(4 bytes @ 0xE000ED0C) >0x0D TIF> >0x28 TIF> -- CPU_ReadMem(4 bytes @ 0xE000EDF0) -- CPU_ReadMem(4 bytes @ 0xE000EDF0) -- CPU is running -- CPU_WriteMem(4 bytes @ 0xE000EDF0) -- CPU is running -- CPU_WriteMem(4 bytes @ 0xE000EDFC)
 -- CPU_ReadMem(4 bytes @ 0xE000EDF0) -- CPU_WriteMem(4 bytes @ 0xE0002000) -- CPU_ReadMem(4 bytes @ 0xE000EDFC) -- CPU_ReadMem(4 bytes @ 0xE0001000) (0074ms, 4545ms total)
T0F4C 3641:230 JLINK_Halt()  returns 0x00 (0000ms, 4546ms total)
T0F4C 3641:230 JLINK_ReadMemU32(0xE000EDF0, 0x0001 Items, ...) -- CPU_ReadMem(4 bytes @ 0xE000EDF0) - Data: 03 00 03 00  returns 1 (0000ms, 4546ms total)
T0F4C 3641:230 JLINK_WriteU32(0xE000EDF0, 0xA05F0003) -- CPU_WriteMem(4 bytes @ 0xE000EDF0)  returns 0 (0001ms, 4547ms total)
T0F4C 3641:231 JLINK_WriteU32(0xE000EDFC, 0x01000000) -- CPU_WriteMem(4 bytes @ 0xE000EDFC)  returns 0 (0000ms, 4547ms total)
T0F4C 3641:290 JLINK_GetHWStatus(...)  returns 0x00 (0000ms, 4547ms total)
T0F4C 3641:315 JLINK_GetNumBPUnits(Type = 0xFFFFFF00)  returns 0x06 (0000ms, 4547ms total)
T0F4C 3641:315 JLINK_GetNumBPUnits(Type = 0xF0)  returns 0x2000 (0001ms, 4548ms total)
T0F4C 3641:316 JLINK_GetNumWPUnits()  returns 0x04 (0000ms, 4548ms total)
T0F4C 3641:328 JLINK_GetSpeed()  returns 0xFA0 (0000ms, 4548ms total)
T0F4C 3641:336 JLINK_ReadMemU32(0xE000E004, 0x0001 Items, ...) -- CPU_ReadMem(4 bytes @ 0xE000E004) - Data: 01 00 00 00  returns 1 (0001ms, 4549ms total)
T0F4C 3641:337 JLINK_ReadMemU32(0xE000E004, 0x0001 Items, ...) -- CPU_ReadMem(4 bytes @ 0xE000E004) - Data: 01 00 00 00  returns 1 (0001ms, 4550ms total)
T0F4C 3641:338 JLINK_WriteMemEx(0xE0001000, 0x001C Bytes, ..., Flags = 0x02000004) - Data: 01 00 00 00 00 00 00 00 00 00 00 00 00 00 00 00 ... -- CPU_WriteMem(28 bytes @ 0xE0001000)  returns 0x1C (0001ms, 4551ms total)
T0F4C 3641:339 JLINK_Halt()  returns 0x00 (0000ms, 4551ms total)
T0F4C 3641:339 JLINK_IsHalted()  returns TRUE (0000ms, 4551ms total)
T0F4C 3641:342 JLINK_WriteMem(0x20000000, 0x0164 Bytes, ...) - Data: 00 BE 0A E0 0D 78 2D 06 68 40 08 24 40 00 00 D3 ... -- CPU_WriteMem(356 bytes @ 0x20000000)  returns 0x164 (0002ms, 4553ms total)
T0F4C 3641:344 JLINK_WriteReg(R0, 0x08000000)  returns 0x00 (0000ms, 4553ms total)
T0F4C 3641:344 JLINK_WriteReg(R1, 0x007A1200)  returns 0x00 (0000ms, 4553ms total)
T0F4C 3641:344 JLINK_WriteReg(R2, 0x00000001)  returns 0x00 (0001ms, 4554ms total)
T0F4C 3641:345 JLINK_WriteReg(R3, 0x00000000)  returns 0x00 (0000ms, 4554ms total)
T0F4C 3641:345 JLINK_WriteReg(R4, 0x00000000)  returns 0x00 (0000ms, 4554ms total)
T0F4C 3641:345 JLINK_WriteReg(R5, 0x00000000)  returns 0x00 (0000ms, 4554ms total)
T0F4C 3641:345 JLINK_WriteReg(R6, 0x00000000)  returns 0x00 (0000ms, 4554ms total)
T0F4C 3641:345 JLINK_WriteReg(R7, 0x00000000)  returns 0x00 (0000ms, 4554ms total)
T0F4C 3641:345 JLINK_WriteReg(R8, 0x00000000)  returns 0x00 (0000ms, 4554ms total)
T0F4C 3641:345 JLINK_WriteReg(R9, 0x20000160)  returns 0x00 (0000ms, 4554ms total)
T0F4C 3641:345 JLINK_WriteReg(R10, 0x00000000)  returns 0x00 (0000ms, 4554ms total)
T0F4C 3641:345 JLINK_WriteReg(R11, 0x00000000)  returns 0x00 (0000ms, 4554ms total)
T0F4C 3641:345 JLINK_WriteReg(R12, 0x00000000)  returns 0x00 (0000ms, 4554ms total)
T0F4C 3641:345 JLINK_WriteReg(R13 (SP), 0x20001000)  returns 0x00 (0000ms, 4554ms total)
T0F4C 3641:345 JLINK_WriteReg(R14, 0x20000001)  returns 0x00 (0000ms, 4554ms total)
T0F4C 3641:345 JLINK_WriteReg(R15 (PC), 0x20000038)  returns 0x00 (0000ms, 4554ms total)
T0F4C 3641:345 JLINK_WriteReg(XPSR, 0x01000000)  returns 0x00 (0000ms, 4554ms total)
T0F4C 3641:345 JLINK_WriteReg(MSP, 0x20001000)  returns 0x00 (0000ms, 4554ms total)
T0F4C 3641:345 JLINK_WriteReg(PSP, 0x20001000)  returns 0x00 (0000ms, 4554ms total)
T0F4C 3641:345 JLINK_WriteReg(CFBP, 0x00000000)  returns 0x00 (0000ms, 4554ms total)
T0F4C 3641:345 JLINK_SetBPEx(Addr = 0x20000000, Type = 0xFFFFFFF2) -- CPU_ReadMem(2 bytes @ 0x20000000)  returns 0x00000001 (0001ms, 4555ms total)
T0F4C 3641:346 JLINK_Go() -- CPU_WriteMem(2 bytes @ 0x20000000) -- CPU_ReadMem(4 bytes @ 0xE0001000) -- CPU_WriteMem(4 bytes @ 0xE0002008) -- CPU_WriteMem(4 bytes @ 0xE000200C) -- CPU_WriteMem(4 bytes @ 0xE0002010) -- CPU_WriteMem(4 bytes @ 0xE0002014) -- CPU_WriteMem(4 bytes @ 0xE0002018) -- CPU_WriteMem(4 bytes @ 0xE000201C) -- CPU_WriteMem(4 bytes @ 0xE0001004) (0004ms, 4559ms total)
T0F4C 3641:350 JLINK_IsHalted() -- CPU_ReadMem(2 bytes @ 0x20000000)  returns TRUE (0002ms, 4561ms total)
T0F4C 3641:352 JLINK_ReadReg(R15 (PC))  returns 0x20000000 (0000ms, 4559ms total)
T0F4C 3641:352 JLINK_ClrBPEx(BPHandle = 0x00000001)  returns 0x00 (0001ms, 4560ms total)
T0F4C 3641:353 JLINK_ReadReg(R0)  returns 0x00000000 (0000ms, 4560ms total)
T0F4C 3641:353 JLINK_WriteReg(R0, 0x08000000)  returns 0x00 (0000ms, 4560ms total)
T0F4C 3641:353 JLINK_WriteReg(R1, 0x007A1200)  returns 0x00 (0000ms, 4560ms total)
T0F4C 3641:353 JLINK_WriteReg(R2, 0x00000001)  returns 0x00 (0000ms, 4560ms total)
T0F4C 3641:353 JLINK_WriteReg(R3, 0x00000000)  returns 0x00 (0000ms, 4560ms total)
T0F4C 3641:353 JLINK_WriteReg(R4, 0x00000000)  returns 0x00 (0000ms, 4560ms total)
T0F4C 3641:353 JLINK_WriteReg(R5, 0x00000000)  returns 0x00 (0000ms, 4560ms total)
T0F4C 3641:353 JLINK_WriteReg(R6, 0x00000000)  returns 0x00 (0000ms, 4560ms total)
T0F4C 3641:353 JLINK_WriteReg(R7, 0x00000000)  returns 0x00 (0000ms, 4560ms total)
T0F4C 3641:353 JLINK_WriteReg(R8, 0x00000000)  returns 0x00 (0000ms, 4560ms total)
T0F4C 3641:353 JLINK_WriteReg(R9, 0x20000160)  returns 0x00 (0000ms, 4560ms total)
T0F4C 3641:353 JLINK_WriteReg(R10, 0x00000000)  returns 0x00 (0000ms, 4560ms total)
T0F4C 3641:353 JLINK_WriteReg(R11, 0x00000000)  returns 0x00 (0000ms, 4560ms total)
T0F4C 3641:353 JLINK_WriteReg(R12, 0x00000000)  returns 0x00 (0000ms, 4560ms total)
T0F4C 3641:353 JLINK_WriteReg(R13 (SP), 0x20001000)  returns 0x00 (0001ms, 4561ms total)
T0F4C 3641:354 JLINK_WriteReg(R14, 0x20000001)  returns 0x00 (0000ms, 4561ms total)
T0F4C 3641:354 JLINK_WriteReg(R15 (PC), 0x2000007C)  returns 0x00 (0000ms, 4561ms total)
T0F4C 3641:354 JLINK_WriteReg(XPSR, 0x01000000)  returns 0x00 (0000ms, 4561ms total)
T0F4C 3641:354 JLINK_WriteReg(MSP, 0x20001000)  returns 0x00 (0000ms, 4561ms total)
T0F4C 3641:354 JLINK_WriteReg(PSP, 0x20001000)  returns 0x00 (0000ms, 4561ms total)
T0F4C 3641:354 JLINK_WriteReg(CFBP, 0x00000000)  returns 0x00 (0000ms, 4561ms total)
T0F4C 3641:354 JLINK_SetBPEx(Addr = 0x20000000, Type = 0xFFFFFFF2)  returns 0x00000002 (0000ms, 4561ms total)
T0F4C 3641:354 JLINK_Go() -- CPU_ReadMem(4 bytes @ 0xE0001000) (0002ms, 4563ms total)
T0F4C 3641:356 JLINK_IsHalted()  returns FALSE (0000ms, 4563ms total)
T0F4C 3641:425 JLINK_IsHalted() -- CPU_ReadMem(2 bytes @ 0x20000000)  returns TRUE (0002ms, 4565ms total)
T0F4C 3641:427 JLINK_ReadReg(R15 (PC))  returns 0x20000000 (0000ms, 4563ms total)
T0F4C 3641:427 JLINK_ClrBPEx(BPHandle = 0x00000002)  returns 0x00 (0000ms, 4563ms total)
T0F4C 3641:427 JLINK_ReadReg(R0)  returns 0x00000000 (0000ms, 4563ms total)
T0F4C 3641:483 JLINK_WriteReg(R0, 0x00000001)  returns 0x00 (0000ms, 4563ms total)
T0F4C 3641:483 JLINK_WriteReg(R1, 0x007A1200)  returns 0x00 (0000ms, 4563ms total)
T0F4C 3641:483 JLINK_WriteReg(R2, 0x00000001)  returns 0x00 (0000ms, 4563ms total)
T0F4C 3641:483 JLINK_WriteReg(R3, 0x00000000)  returns 0x00 (0000ms, 4563ms total)
T0F4C 3641:483 JLINK_WriteReg(R4, 0x00000000)  returns 0x00 (0001ms, 4564ms total)
T0F4C 3641:484 JLINK_WriteReg(R5, 0x00000000)  returns 0x00 (0000ms, 4564ms total)
T0F4C 3641:484 JLINK_WriteReg(R6, 0x00000000)  returns 0x00 (0000ms, 4564ms total)
T0F4C 3641:484 JLINK_WriteReg(R7, 0x00000000)  returns 0x00 (0000ms, 4564ms total)
T0F4C 3641:484 JLINK_WriteReg(R8, 0x00000000)  returns 0x00 (0000ms, 4564ms total)
T0F4C 3641:484 JLINK_WriteReg(R9, 0x20000160)  returns 0x00 (0000ms, 4564ms total)
T0F4C 3641:484 JLINK_WriteReg(R10, 0x00000000)  returns 0x00 (0001ms, 4565ms total)
T0F4C 3641:485 JLINK_WriteReg(R11, 0x00000000)  returns 0x00 (0000ms, 4565ms total)
T0F4C 3641:485 JLINK_WriteReg(R12, 0x00000000)  returns 0x00 (0000ms, 4565ms total)
T0F4C 3641:485 JLINK_WriteReg(R13 (SP), 0x20001000)  returns 0x00 (0000ms, 4565ms total)
T0F4C 3641:485 JLINK_WriteReg(R14, 0x20000001)  returns 0x00 (0000ms, 4565ms total)
T0F4C 3641:485 JLINK_WriteReg(R15 (PC), 0x2000006A)  returns 0x00 (0000ms, 4565ms total)
T0F4C 3641:485 JLINK_WriteReg(XPSR, 0x01000000)  returns 0x00 (0001ms, 4566ms total)
T0F4C 3641:486 JLINK_WriteReg(MSP, 0x20001000)  returns 0x00 (0000ms, 4566ms total)
T0F4C 3641:486 JLINK_WriteReg(PSP, 0x20001000)  returns 0x00 (0000ms, 4566ms total)
T0F4C 3641:486 JLINK_WriteReg(CFBP, 0x00000000)  returns 0x00 (0000ms, 4566ms total)
T0F4C 3641:486 JLINK_SetBPEx(Addr = 0x20000000, Type = 0xFFFFFFF2)  returns 0x00000003 (0000ms, 4566ms total)
T0F4C 3641:487 JLINK_Go() -- CPU_ReadMem(4 bytes @ 0xE0001000) (0003ms, 4569ms total)
T0F4C 3641:490 JLINK_IsHalted() -- CPU_ReadMem(2 bytes @ 0x20000000)  returns TRUE (0003ms, 4572ms total)
T0F4C 3641:493 JLINK_ReadReg(R15 (PC))  returns 0x20000000 (0000ms, 4569ms total)
T0F4C 3641:494 JLINK_ClrBPEx(BPHandle = 0x00000003)  returns 0x00 (0000ms, 4569ms total)
T0F4C 3641:494 JLINK_ReadReg(R0)  returns 0x00000000 (0000ms, 4569ms total)
T0F4C 3641:529 JLINK_WriteMem(0x20000000, 0x0164 Bytes, ...) - Data: 00 BE 0A E0 0D 78 2D 06 68 40 08 24 40 00 00 D3 ... -- CPU_WriteMem(356 bytes @ 0x20000000)  returns 0x164 (0002ms, 4571ms total)
T0F4C 3641:531 JLINK_WriteReg(R0, 0x08000000)  returns 0x00 (0000ms, 4571ms total)
T0F4C 3641:531 JLINK_WriteReg(R1, 0x007A1200)  returns 0x00 (0000ms, 4571ms total)
T0F4C 3641:531 JLINK_WriteReg(R2, 0x00000002)  returns 0x00 (0000ms, 4571ms total)
T0F4C 3641:531 JLINK_WriteReg(R3, 0x00000000)  returns 0x00 (0000ms, 4571ms total)
T0F4C 3641:531 JLINK_WriteReg(R4, 0x00000000)  returns 0x00 (0000ms, 4571ms total)
T0F4C 3641:531 JLINK_WriteReg(R5, 0x00000000)  returns 0x00 (0000ms, 4571ms total)
T0F4C 3641:531 JLINK_WriteReg(R6, 0x00000000)  returns 0x00 (0000ms, 4571ms total)
T0F4C 3641:531 JLINK_WriteReg(R7, 0x00000000)  returns 0x00 (0000ms, 4571ms total)
T0F4C 3641:531 JLINK_WriteReg(R8, 0x00000000)  returns 0x00 (0000ms, 4571ms total)
T0F4C 3641:531 JLINK_WriteReg(R9, 0x20000160)  returns 0x00 (0001ms, 4572ms total)
T0F4C 3641:532 JLINK_WriteReg(R10, 0x00000000)  returns 0x00 (0000ms, 4572ms total)
T0F4C 3641:532 JLINK_WriteReg(R11, 0x00000000)  returns 0x00 (0000ms, 4572ms total)
T0F4C 3641:532 JLINK_WriteReg(R12, 0x00000000)  returns 0x00 (0000ms, 4572ms total)
T0F4C 3641:532 JLINK_WriteReg(R13 (SP), 0x20001000)  returns 0x00 (0000ms, 4572ms total)
T0F4C 3641:532 JLINK_WriteReg(R14, 0x20000001)  returns 0x00 (0000ms, 4572ms total)
T0F4C 3641:532 JLINK_WriteReg(R15 (PC), 0x20000038)  returns 0x00 (0000ms, 4572ms total)
T0F4C 3641:532 JLINK_WriteReg(XPSR, 0x01000000)  returns 0x00 (0000ms, 4572ms total)
T0F4C 3641:532 JLINK_WriteReg(MSP, 0x20001000)  returns 0x00 (0000ms, 4572ms total)
T0F4C 3641:532 JLINK_WriteReg(PSP, 0x20001000)  returns 0x00 (0000ms, 4572ms total)
T0F4C 3641:532 JLINK_WriteReg(CFBP, 0x00000000)  returns 0x00 (0000ms, 4572ms total)
T0F4C 3641:532 JLINK_SetBPEx(Addr = 0x20000000, Type = 0xFFFFFFF2) -- CPU_ReadMem(2 bytes @ 0x20000000)  returns 0x00000004 (0001ms, 4573ms total)
T0F4C 3641:533 JLINK_Go() -- CPU_WriteMem(2 bytes @ 0x20000000) -- CPU_ReadMem(4 bytes @ 0xE0001000) (0003ms, 4576ms total)
T0F4C 3641:536 JLINK_IsHalted() -- CPU_ReadMem(2 bytes @ 0x20000000)  returns TRUE (0003ms, 4579ms total)
T0F4C 3641:539 JLINK_ReadReg(R15 (PC))  returns 0x20000000 (0000ms, 4576ms total)
T0F4C 3641:539 JLINK_ClrBPEx(BPHandle = 0x00000004)  returns 0x00 (0000ms, 4576ms total)
T0F4C 3641:539 JLINK_ReadReg(R0)  returns 0x00000000 (0000ms, 4576ms total)
T0F4C 3641:540 JLINK_WriteMem(0x20000164, 0x029C Bytes, ...) - Data: 90 18 00 20 45 01 00 08 85 2E 00 08 7D 20 00 08 ... -- CPU_WriteMem(668 bytes @ 0x20000164)  returns 0x29C (0003ms, 4579ms total)
T0F4C 3641:543 JLINK_WriteMem(0x20000400, 0x0164 Bytes, ...) - Data: 0A 00 C3 F3 0A 51 02 90 40 1A 01 90 40 28 6B DA ... -- CPU_WriteMem(356 bytes @ 0x20000400)  returns 0x164 (0002ms, 4581ms total)
T0F4C 3641:545 JLINK_WriteReg(R0, 0x08000000)  returns 0x00 (0000ms, 4581ms total)
T0F4C 3641:545 JLINK_WriteReg(R1, 0x00000400)  returns 0x00 (0000ms, 4581ms total)
T0F4C 3641:545 JLINK_WriteReg(R2, 0x20000164)  returns 0x00 (0000ms, 4581ms total)
T0F4C 3641:545 JLINK_WriteReg(R3, 0x00000000)  returns 0x00 (0000ms, 4581ms total)
T0F4C 3641:545 JLINK_WriteReg(R4, 0x00000000)  returns 0x00 (0000ms, 4581ms total)
T0F4C 3641:545 JLINK_WriteReg(R5, 0x00000000)  returns 0x00 (0000ms, 4581ms total)
T0F4C 3641:545 JLINK_WriteReg(R6, 0x00000000)  returns 0x00 (0000ms, 4581ms total)
T0F4C 3641:545 JLINK_WriteReg(R7, 0x00000000)  returns 0x00 (0001ms, 4582ms total)
T0F4C 3641:546 JLINK_WriteReg(R8, 0x00000000)  returns 0x00 (0000ms, 4582ms total)
T0F4C 3641:546 JLINK_WriteReg(R9, 0x20000160)  returns 0x00 (0000ms, 4582ms total)
T0F4C 3641:546 JLINK_WriteReg(R10, 0x00000000)  returns 0x00 (0000ms, 4582ms total)
T0F4C 3641:546 JLINK_WriteReg(R11, 0x00000000)  returns 0x00 (0000ms, 4582ms total)
T0F4C 3641:546 JLINK_WriteReg(R12, 0x00000000)  returns 0x00 (0000ms, 4582ms total)
T0F4C 3641:546 JLINK_WriteReg(R13 (SP), 0x20001000)  returns 0x00 (0000ms, 4582ms total)
T0F4C 3641:546 JLINK_WriteReg(R14, 0x20000001)  returns 0x00 (0000ms, 4582ms total)
T0F4C 3641:546 JLINK_WriteReg(R15 (PC), 0x200000F4)  returns 0x00 (0000ms, 4582ms total)
T0F4C 3641:546 JLINK_WriteReg(XPSR, 0x01000000)  returns 0x00 (0000ms, 4582ms total)
T0F4C 3641:546 JLINK_WriteReg(MSP, 0x20001000)  returns 0x00 (0000ms, 4582ms total)
T0F4C 3641:546 JLINK_WriteReg(PSP, 0x20001000)  returns 0x00 (0000ms, 4582ms total)
T0F4C 3641:546 JLINK_WriteReg(CFBP, 0x00000000)  returns 0x00 (0001ms, 4583ms total)
T0F4C 3641:547 JLINK_SetBPEx(Addr = 0x20000000, Type = 0xFFFFFFF2)  returns 0x00000005 (0000ms, 4583ms total)
T0F4C 3641:547 JLINK_Go() -- CPU_ReadMem(4 bytes @ 0xE0001000) (0003ms, 4586ms total)
T0F4C 3641:550 JLINK_IsHalted()  returns FALSE (0000ms, 4586ms total)
T0F4C 3641:563 JLINK_IsHalted()  returns FALSE (0000ms, 4586ms total)
T0F4C 3641:565 JLINK_IsHalted()  returns FALSE (0000ms, 4586ms total)
T0F4C 3641:568 JLINK_IsHalted()  returns FALSE (0000ms, 4586ms total)
T0F4C 3641:570 JLINK_IsHalted()  returns FALSE (0000ms, 4586ms total)
T0F4C 3641:572 JLINK_IsHalted()  returns FALSE (0000ms, 4586ms total)
T0F4C 3641:574 JLINK_IsHalted()  returns FALSE (0000ms, 4586ms total)
T0F4C 3641:576 JLINK_IsHalted()  returns FALSE (0000ms, 4586ms total)
T0F4C 3641:578 JLINK_IsHalted()  returns FALSE (0000ms, 4586ms total)
T0F4C 3641:580 JLINK_IsHalted()  returns FALSE (0000ms, 4586ms total)
T0F4C 3641:582 JLINK_IsHalted() -- CPU_ReadMem(2 bytes @ 0x20000000)  returns TRUE (0003ms, 4589ms total)
T0F4C 3641:585 JLINK_ReadReg(R15 (PC))  returns 0x20000000 (0000ms, 4586ms total)
T0F4C 3641:585 JLINK_ClrBPEx(BPHandle = 0x00000005)  returns 0x00 (0000ms, 4586ms total)
T0F4C 3641:585 JLINK_ReadReg(R0)  returns 0x00000000 (0000ms, 4586ms total)
T0F4C 3641:586 JLINK_WriteMem(0x20000164, 0x029C Bytes, ...) - Data: 00 FB 03 4E 84 0A 97 0A 44 EA 81 54 47 EA 83 57 ... -- CPU_WriteMem(668 bytes @ 0x20000164)  returns 0x29C (0004ms, 4590ms total)
T0F4C 3641:590 JLINK_WriteMem(0x20000400, 0x0164 Bytes, ...) - Data: 00 80 71 05 4F F0 02 04 0B D5 40 42 00 28 03 DD ... -- CPU_WriteMem(356 bytes @ 0x20000400)  returns 0x164 (0002ms, 4592ms total)
T0F4C 3641:592 JLINK_WriteReg(R0, 0x08000400)  returns 0x00 (0000ms, 4592ms total)
T0F4C 3641:592 JLINK_WriteReg(R1, 0x00000400)  returns 0x00 (0000ms, 4592ms total)
T0F4C 3641:592 JLINK_WriteReg(R2, 0x20000164)  returns 0x00 (0000ms, 4592ms total)
T0F4C 3641:592 JLINK_WriteReg(R3, 0x00000000)  returns 0x00 (0000ms, 4592ms total)
T0F4C 3641:592 JLINK_WriteReg(R4, 0x00000000)  returns 0x00 (0000ms, 4592ms total)
T0F4C 3641:592 JLINK_WriteReg(R5, 0x00000000)  returns 0x00 (0000ms, 4592ms total)
T0F4C 3641:592 JLINK_WriteReg(R6, 0x00000000)  returns 0x00 (0000ms, 4592ms total)
T0F4C 3641:592 JLINK_WriteReg(R7, 0x00000000)  returns 0x00 (0000ms, 4592ms total)
T0F4C 3641:592 JLINK_WriteReg(R8, 0x00000000)  returns 0x00 (0000ms, 4592ms total)
T0F4C 3641:592 JLINK_WriteReg(R9, 0x20000160)  returns 0x00 (0000ms, 4592ms total)
T0F4C 3641:592 JLINK_WriteReg(R10, 0x00000000)  returns 0x00 (0000ms, 4592ms total)
T0F4C 3641:592 JLINK_WriteReg(R11, 0x00000000)  returns 0x00 (0000ms, 4592ms total)
T0F4C 3641:592 JLINK_WriteReg(R12, 0x00000000)  returns 0x00 (0002ms, 4594ms total)
T0F4C 3641:594 JLINK_WriteReg(R13 (SP), 0x20001000)  returns 0x00 (0000ms, 4594ms total)
T0F4C 3641:594 JLINK_WriteReg(R14, 0x20000001)  returns 0x00 (0000ms, 4594ms total)
T0F4C 3641:594 JLINK_WriteReg(R15 (PC), 0x200000F4)  returns 0x00 (0000ms, 4594ms total)
T0F4C 3641:594 JLINK_WriteReg(XPSR, 0x01000000)  returns 0x00 (0000ms, 4594ms total)
T0F4C 3641:594 JLINK_WriteReg(MSP, 0x20001000)  returns 0x00 (0000ms, 4594ms total)
T0F4C 3641:594 JLINK_WriteReg(PSP, 0x20001000)  returns 0x00 (0000ms, 4594ms total)
T0F4C 3641:594 JLINK_WriteReg(CFBP, 0x00000000)  returns 0x00 (0000ms, 4594ms total)
T0F4C 3641:594 JLINK_SetBPEx(Addr = 0x20000000, Type = 0xFFFFFFF2)  returns 0x00000006 (0000ms, 4594ms total)
T0F4C 3641:594 JLINK_Go() -- CPU_ReadMem(4 bytes @ 0xE0001000) (0002ms, 4596ms total)
T0F4C 3641:596 JLINK_IsHalted()  returns FALSE (0001ms, 4597ms total)
T0F4C 3641:603 JLINK_IsHalted()  returns FALSE (0000ms, 4596ms total)
T0F4C 3641:605 JLINK_IsHalted()  returns FALSE (0000ms, 4596ms total)
T0F4C 3641:607 JLINK_IsHalted()  returns FALSE (0000ms, 4596ms total)
T0F4C 3641:609 JLINK_IsHalted()  returns FALSE (0000ms, 4596ms total)
T0F4C 3641:611 JLINK_IsHalted()  returns FALSE (0000ms, 4596ms total)
T0F4C 3641:614 JLINK_IsHalted()  returns FALSE (0000ms, 4596ms total)
T0F4C 3641:617 JLINK_IsHalted()  returns FALSE (0001ms, 4597ms total)
T0F4C 3641:620 JLINK_IsHalted()  returns FALSE (0001ms, 4598ms total)
T0F4C 3641:623 JLINK_IsHalted()  returns FALSE (0001ms, 4598ms total)
T0F4C 3641:626 JLINK_IsHalted()  returns FALSE (0001ms, 4598ms total)
T0F4C 3641:629 JLINK_IsHalted() -- CPU_ReadMem(2 bytes @ 0x20000000)  returns TRUE (0003ms, 4600ms total)
T0F4C 3641:632 JLINK_ReadReg(R15 (PC))  returns 0x20000000 (0000ms, 4597ms total)
T0F4C 3641:632 JLINK_ClrBPEx(BPHandle = 0x00000006)  returns 0x00 (0001ms, 4598ms total)
T0F4C 3641:633 JLINK_ReadReg(R0)  returns 0x00000000 (0000ms, 4598ms total)
T0F4C 3641:636 JLINK_WriteMem(0x20000164, 0x029C Bytes, ...) - Data: 00 4B 21 F0 00 45 14 46 4F F0 00 0A 23 F0 00 41 ... -- CPU_WriteMem(668 bytes @ 0x20000164)  returns 0x29C (0004ms, 4602ms total)
T0F4C 3641:640 JLINK_WriteMem(0x20000400, 0x0164 Bytes, ...) - Data: 00 00 00 20 8D F8 03 00 69 46 08 48 01 F0 D0 F9 ... -- CPU_WriteMem(356 bytes @ 0x20000400)  returns 0x164 (0002ms, 4604ms total)
T0F4C 3641:642 JLINK_WriteReg(R0, 0x08000800)  returns 0x00 (0000ms, 4604ms total)
T0F4C 3641:642 JLINK_WriteReg(R1, 0x00000400)  returns 0x00 (0000ms, 4604ms total)
T0F4C 3641:643 JLINK_WriteReg(R2, 0x20000164)  returns 0x00 (0000ms, 4605ms total)
T0F4C 3641:643 JLINK_WriteReg(R3, 0x00000000)  returns 0x00 (0000ms, 4605ms total)
T0F4C 3641:643 JLINK_WriteReg(R4, 0x00000000)  returns 0x00 (0000ms, 4605ms total)
T0F4C 3641:643 JLINK_WriteReg(R5, 0x00000000)  returns 0x00 (0001ms, 4606ms total)
T0F4C 3641:644 JLINK_WriteReg(R6, 0x00000000)  returns 0x00 (0000ms, 4606ms total)
T0F4C 3641:644 JLINK_WriteReg(R7, 0x00000000)  returns 0x00 (0001ms, 4607ms total)
T0F4C 3641:645 JLINK_WriteReg(R8, 0x00000000)  returns 0x00 (0000ms, 4607ms total)
T0F4C 3641:645 JLINK_WriteReg(R9, 0x20000160)  returns 0x00 (0000ms, 4607ms total)
T0F4C 3641:645 JLINK_WriteReg(R10, 0x00000000)  returns 0x00 (0000ms, 4607ms total)
T0F4C 3641:645 JLINK_WriteReg(R11, 0x00000000)  returns 0x00 (0000ms, 4607ms total)
T0F4C 3641:645 JLINK_WriteReg(R12, 0x00000000)  returns 0x00 (0000ms, 4607ms total)
T0F4C 3641:645 JLINK_WriteReg(R13 (SP), 0x20001000)  returns 0x00 (0001ms, 4608ms total)
T0F4C 3641:646 JLINK_WriteReg(R14, 0x20000001)  returns 0x00 (0000ms, 4608ms total)
T0F4C 3641:646 JLINK_WriteReg(R15 (PC), 0x200000F4)  returns 0x00 (0000ms, 4608ms total)
T0F4C 3641:646 JLINK_WriteReg(XPSR, 0x01000000)  returns 0x00 (0000ms, 4608ms total)
T0F4C 3641:646 JLINK_WriteReg(MSP, 0x20001000)  returns 0x00 (0000ms, 4608ms total)
T0F4C 3641:646 JLINK_WriteReg(PSP, 0x20001000)  returns 0x00 (0000ms, 4608ms total)
T0F4C 3641:646 JLINK_WriteReg(CFBP, 0x00000000)  returns 0x00 (0000ms, 4608ms total)
T0F4C 3641:646 JLINK_SetBPEx(Addr = 0x20000000, Type = 0xFFFFFFF2)  returns 0x00000007 (0001ms, 4609ms total)
T0F4C 3641:647 JLINK_Go() -- CPU_ReadMem(4 bytes @ 0xE0001000) (0003ms, 4612ms total)
T0F4C 3641:650 JLINK_IsHalted()  returns FALSE (0001ms, 4613ms total)
T0F4C 3641:663 JLINK_IsHalted()  returns FALSE (0000ms, 4612ms total)
T0F4C 3641:673 JLINK_IsHalted()  returns FALSE (0001ms, 4613ms total)
T0F4C 3641:676 JLINK_IsHalted()  returns FALSE (0000ms, 4612ms total)
T0F4C 3641:678 JLINK_IsHalted()  returns FALSE (0000ms, 4612ms total)
T0F4C 3641:679 JLINK_IsHalted()  returns FALSE (0000ms, 4612ms total)
T0F4C 3641:681 JLINK_IsHalted() -- CPU_ReadMem(2 bytes @ 0x20000000)  returns TRUE (0003ms, 4615ms total)
T0F4C 3641:684 JLINK_ReadReg(R15 (PC))  returns 0x20000000 (0000ms, 4612ms total)
T0F4C 3641:684 JLINK_ClrBPEx(BPHandle = 0x00000007)  returns 0x00 (0000ms, 4612ms total)
T0F4C 3641:684 JLINK_ReadReg(R0)  returns 0x00000000 (0000ms, 4612ms total)
T0F4C 3641:685 JLINK_WriteMem(0x20000164, 0x029C Bytes, ...) - Data: 01 46 00 20 8A 68 02 F0 04 02 0A B1 01 20 00 E0 ... -- CPU_WriteMem(668 bytes @ 0x20000164)  returns 0x29C (0003ms, 4615ms total)
T0F4C 3641:688 JLINK_WriteMem(0x20000400, 0x0164 Bytes, ...) - Data: 53 F8 00 21 27 20 00 F0 4F F8 09 21 28 20 00 F0 ... -- CPU_WriteMem(356 bytes @ 0x20000400)  returns 0x164 (0002ms, 4617ms total)
T0F4C 3641:690 JLINK_WriteReg(R0, 0x08000C00)  returns 0x00 (0001ms, 4618ms total)
T0F4C 3641:691 JLINK_WriteReg(R1, 0x00000400)  returns 0x00 (0000ms, 4618ms total)
T0F4C 3641:691 JLINK_WriteReg(R2, 0x20000164)  returns 0x00 (0000ms, 4618ms total)
T0F4C 3641:691 JLINK_WriteReg(R3, 0x00000000)  returns 0x00 (0000ms, 4618ms total)
T0F4C 3641:691 JLINK_WriteReg(R4, 0x00000000)  returns 0x00 (0000ms, 4618ms total)
T0F4C 3641:691 JLINK_WriteReg(R5, 0x00000000)  returns 0x00 (0000ms, 4618ms total)
T0F4C 3641:691 JLINK_WriteReg(R6, 0x00000000)  returns 0x00 (0000ms, 4618ms total)
T0F4C 3641:691 JLINK_WriteReg(R7, 0x00000000)  returns 0x00 (0000ms, 4618ms total)
T0F4C 3641:691 JLINK_WriteReg(R8, 0x00000000)  returns 0x00 (0000ms, 4618ms total)
T0F4C 3641:691 JLINK_WriteReg(R9, 0x20000160)  returns 0x00 (0001ms, 4619ms total)
T0F4C 3641:692 JLINK_WriteReg(R10, 0x00000000)  returns 0x00 (0000ms, 4619ms total)
T0F4C 3641:692 JLINK_WriteReg(R11, 0x00000000)  returns 0x00 (0000ms, 4619ms total)
T0F4C 3641:692 JLINK_WriteReg(R12, 0x00000000)  returns 0x00 (0000ms, 4619ms total)
T0F4C 3641:692 JLINK_WriteReg(R13 (SP), 0x20001000)  returns 0x00 (0000ms, 4619ms total)
T0F4C 3641:692 JLINK_WriteReg(R14, 0x20000001)  returns 0x00 (0000ms, 4619ms total)
T0F4C 3641:692 JLINK_WriteReg(R15 (PC), 0x200000F4)  returns 0x00 (0000ms, 4619ms total)
T0F4C 3641:692 JLINK_WriteReg(XPSR, 0x01000000)  returns 0x00 (0000ms, 4619ms total)
T0F4C 3641:692 JLINK_WriteReg(MSP, 0x20001000)  returns 0x00 (0000ms, 4619ms total)
T0F4C 3641:692 JLINK_WriteReg(PSP, 0x20001000)  returns 0x00 (0000ms, 4619ms total)
T0F4C 3641:692 JLINK_WriteReg(CFBP, 0x00000000)  returns 0x00 (0000ms, 4619ms total)
T0F4C 3641:692 JLINK_SetBPEx(Addr = 0x20000000, Type = 0xFFFFFFF2)  returns 0x00000008 (0000ms, 4619ms total)
T0F4C 3641:692 JLINK_Go() -- CPU_ReadMem(4 bytes @ 0xE0001000) (0004ms, 4623ms total)
T0F4C 3641:696 JLINK_IsHalted()  returns FALSE (0000ms, 4623ms total)
T0F4C 3641:702 JLINK_IsHalted()  returns FALSE (0000ms, 4623ms total)
T0F4C 3641:704 JLINK_IsHalted()  returns FALSE (0000ms, 4623ms total)
T0F4C 3641:706 JLINK_IsHalted()  returns FALSE (0000ms, 4623ms total)
T0F4C 3641:708 JLINK_IsHalted()  returns FALSE (0000ms, 4623ms total)
T0F4C 3641:711 JLINK_IsHalted()  returns FALSE (0000ms, 4623ms total)
T0F4C 3641:713 JLINK_IsHalted()  returns FALSE (0001ms, 4624ms total)
T0F4C 3641:716 JLINK_IsHalted()  returns FALSE (0000ms, 4623ms total)
T0F4C 3641:718 JLINK_IsHalted()  returns FALSE (0000ms, 4623ms total)
T0F4C 3641:720 JLINK_IsHalted()  returns FALSE (0000ms, 4623ms total)
T0F4C 3641:722 JLINK_IsHalted()  returns FALSE (0000ms, 4623ms total)
T0F4C 3641:725 JLINK_IsHalted()  returns FALSE (0000ms, 4623ms total)
T0F4C 3641:727 JLINK_IsHalted() -- CPU_ReadMem(2 bytes @ 0x20000000)  returns TRUE (0002ms, 4625ms total)
T0F4C 3641:730 JLINK_ReadReg(R15 (PC))  returns 0x20000000 (0000ms, 4623ms total)
T0F4C 3641:730 JLINK_ClrBPEx(BPHandle = 0x00000008)  returns 0x00 (0000ms, 4623ms total)
T0F4C 3641:730 JLINK_ReadReg(R0)  returns 0x00000000 (0000ms, 4623ms total)
T0F4C 3641:732 JLINK_WriteMem(0x20000164, 0x029C Bytes, ...) - Data: 00 78 20 28 02 D1 01 20 26 49 08 70 24 4D 00 2D ... -- CPU_WriteMem(668 bytes @ 0x20000164)  returns 0x29C (0003ms, 4626ms total)
T0F4C 3641:735 JLINK_WriteMem(0x20000400, 0x0164 Bytes, ...) - Data: 02 F0 26 FF 07 AA DD E9 05 01 01 F0 19 F8 58 B9 ... -- CPU_WriteMem(356 bytes @ 0x20000400)  returns 0x164 (0002ms, 4628ms total)
T0F4C 3641:737 JLINK_WriteReg(R0, 0x08001000)  returns 0x00 (0000ms, 4628ms total)
T0F4C 3641:737 JLINK_WriteReg(R1, 0x00000400)  returns 0x00 (0000ms, 4628ms total)
T0F4C 3641:737 JLINK_WriteReg(R2, 0x20000164)  returns 0x00 (0000ms, 4628ms total)
T0F4C 3641:737 JLINK_WriteReg(R3, 0x00000000)  returns 0x00 (0000ms, 4628ms total)
T0F4C 3641:737 JLINK_WriteReg(R4, 0x00000000)  returns 0x00 (0000ms, 4628ms total)
T0F4C 3641:737 JLINK_WriteReg(R5, 0x00000000)  returns 0x00 (0001ms, 4629ms total)
T0F4C 3641:738 JLINK_WriteReg(R6, 0x00000000)  returns 0x00 (0000ms, 4629ms total)
T0F4C 3641:738 JLINK_WriteReg(R7, 0x00000000)  returns 0x00 (0000ms, 4629ms total)
T0F4C 3641:738 JLINK_WriteReg(R8, 0x00000000)  returns 0x00 (0000ms, 4629ms total)
T0F4C 3641:738 JLINK_WriteReg(R9, 0x20000160)  returns 0x00 (0000ms, 4629ms total)
T0F4C 3641:738 JLINK_WriteReg(R10, 0x00000000)  returns 0x00 (0000ms, 4629ms total)
T0F4C 3641:738 JLINK_WriteReg(R11, 0x00000000)  returns 0x00 (0000ms, 4629ms total)
T0F4C 3641:738 JLINK_WriteReg(R12, 0x00000000)  returns 0x00 (0000ms, 4629ms total)
T0F4C 3641:738 JLINK_WriteReg(R13 (SP), 0x20001000)  returns 0x00 (0000ms, 4629ms total)
T0F4C 3641:738 JLINK_WriteReg(R14, 0x20000001)  returns 0x00 (0001ms, 4630ms total)
T0F4C 3641:739 JLINK_WriteReg(R15 (PC), 0x200000F4)  returns 0x00 (0000ms, 4630ms total)
T0F4C 3641:739 JLINK_WriteReg(XPSR, 0x01000000)  returns 0x00 (0000ms, 4630ms total)
T0F4C 3641:739 JLINK_WriteReg(MSP, 0x20001000)  returns 0x00 (0000ms, 4630ms total)
T0F4C 3641:739 JLINK_WriteReg(PSP, 0x20001000)  returns 0x00 (0000ms, 4630ms total)
T0F4C 3641:739 JLINK_WriteReg(CFBP, 0x00000000)  returns 0x00 (0000ms, 4630ms total)
T0F4C 3641:739 JLINK_SetBPEx(Addr = 0x20000000, Type = 0xFFFFFFF2)  returns 0x00000009 (0000ms, 4630ms total)
T0F4C 3641:739 JLINK_Go() -- CPU_ReadMem(4 bytes @ 0xE0001000) (0003ms, 4633ms total)
T0F4C 3641:742 JLINK_IsHalted()  returns FALSE (0000ms, 4633ms total)
T0F4C 3641:749 JLINK_IsHalted()  returns FALSE (0000ms, 4633ms total)
T0F4C 3641:751 JLINK_IsHalted()  returns FALSE (0000ms, 4633ms total)
T0F4C 3641:753 JLINK_IsHalted()  returns FALSE (0001ms, 4635ms total)
T0F4C 3641:756 JLINK_IsHalted()  returns FALSE (0000ms, 4634ms total)
T0F4C 3641:766 JLINK_IsHalted()  returns FALSE (0000ms, 4634ms total)
T0F4C 3641:768 JLINK_IsHalted()  returns FALSE (0000ms, 4634ms total)
T0F4C 3641:770 JLINK_IsHalted()  returns FALSE (0001ms, 4635ms total)
T0F4C 3641:773 JLINK_IsHalted() -- CPU_ReadMem(2 bytes @ 0x20000000)  returns TRUE (0002ms, 4636ms total)
T0F4C 3641:776 JLINK_ReadReg(R15 (PC))  returns 0x20000000 (0000ms, 4634ms total)
T0F4C 3641:776 JLINK_ClrBPEx(BPHandle = 0x00000009)  returns 0x00 (0000ms, 4634ms total)
T0F4C 3641:776 JLINK_ReadReg(R0)  returns 0x00000000 (0000ms, 4634ms total)
T0F4C 3641:777 JLINK_WriteMem(0x20000164, 0x029C Bytes, ...) - Data: 18 B9 72 A0 02 F0 72 FE 02 E0 77 A0 02 F0 6E FE ... -- CPU_WriteMem(668 bytes @ 0x20000164)  returns 0x29C (0003ms, 4637ms total)
T0F4C 3641:780 JLINK_WriteMem(0x20000400, 0x0164 Bytes, ...) - Data: 27 FD 00 BF 00 BF 05 B0 F0 BD 00 00 53 75 62 73 ... -- CPU_WriteMem(356 bytes @ 0x20000400)  returns 0x164 (0002ms, 4639ms total)
T0F4C 3641:782 JLINK_WriteReg(R0, 0x08001400)  returns 0x00 (0000ms, 4639ms total)
T0F4C 3641:782 JLINK_WriteReg(R1, 0x00000400)  returns 0x00 (0000ms, 4639ms total)
T0F4C 3641:782 JLINK_WriteReg(R2, 0x20000164)  returns 0x00 (0000ms, 4639ms total)
T0F4C 3641:782 JLINK_WriteReg(R3, 0x00000000)  returns 0x00 (0000ms, 4639ms total)
T0F4C 3641:782 JLINK_WriteReg(R4, 0x00000000)  returns 0x00 (0000ms, 4639ms total)
T0F4C 3641:782 JLINK_WriteReg(R5, 0x00000000)  returns 0x00 (0001ms, 4640ms total)
T0F4C 3641:783 JLINK_WriteReg(R6, 0x00000000)  returns 0x00 (0000ms, 4640ms total)
T0F4C 3641:783 JLINK_WriteReg(R7, 0x00000000)  returns 0x00 (0000ms, 4640ms total)
T0F4C 3641:783 JLINK_WriteReg(R8, 0x00000000)  returns 0x00 (0000ms, 4640ms total)
T0F4C 3641:783 JLINK_WriteReg(R9, 0x20000160)  returns 0x00 (0000ms, 4640ms total)
T0F4C 3641:783 JLINK_WriteReg(R10, 0x00000000)  returns 0x00 (0000ms, 4640ms total)
T0F4C 3641:783 JLINK_WriteReg(R11, 0x00000000)  returns 0x00 (0000ms, 4640ms total)
T0F4C 3641:783 JLINK_WriteReg(R12, 0x00000000)  returns 0x00 (0000ms, 4640ms total)
T0F4C 3641:783 JLINK_WriteReg(R13 (SP), 0x20001000)  returns 0x00 (0000ms, 4640ms total)
T0F4C 3641:783 JLINK_WriteReg(R14, 0x20000001)  returns 0x00 (0000ms, 4640ms total)
T0F4C 3641:783 JLINK_WriteReg(R15 (PC), 0x200000F4)  returns 0x00 (0001ms, 4641ms total)
T0F4C 3641:784 JLINK_WriteReg(XPSR, 0x01000000)  returns 0x00 (0000ms, 4641ms total)
T0F4C 3641:784 JLINK_WriteReg(MSP, 0x20001000)  returns 0x00 (0000ms, 4641ms total)
T0F4C 3641:784 JLINK_WriteReg(PSP, 0x20001000)  returns 0x00 (0000ms, 4641ms total)
T0F4C 3641:784 JLINK_WriteReg(CFBP, 0x00000000)  returns 0x00 (0000ms, 4641ms total)
T0F4C 3641:784 JLINK_SetBPEx(Addr = 0x20000000, Type = 0xFFFFFFF2)  returns 0x0000000A (0000ms, 4641ms total)
T0F4C 3641:784 JLINK_Go() -- CPU_ReadMem(4 bytes @ 0xE0001000) (0003ms, 4644ms total)
T0F4C 3641:787 JLINK_IsHalted()  returns FALSE (0001ms, 4645ms total)
T0F4C 3641:797 JLINK_IsHalted()  returns FALSE (0000ms, 4644ms total)
T0F4C 3641:799 JLINK_IsHalted()  returns FALSE (0000ms, 4644ms total)
T0F4C 3641:801 JLINK_IsHalted()  returns FALSE (0000ms, 4644ms total)
T0F4C 3641:803 JLINK_IsHalted()  returns FALSE (0000ms, 4644ms total)
T0F4C 3641:806 JLINK_IsHalted()  returns FALSE (0000ms, 4644ms total)
T0F4C 3641:815 JLINK_IsHalted()  returns FALSE (0000ms, 4644ms total)
T0F4C 3641:817 JLINK_IsHalted()  returns FALSE (0000ms, 4644ms total)
T0F4C 3641:820 JLINK_IsHalted() -- CPU_ReadMem(2 bytes @ 0x20000000)  returns TRUE (0003ms, 4647ms total)
T0F4C 3641:823 JLINK_ReadReg(R15 (PC))  returns 0x20000000 (0000ms, 4644ms total)
T0F4C 3641:823 JLINK_ClrBPEx(BPHandle = 0x0000000A)  returns 0x00 (0000ms, 4644ms total)
T0F4C 3641:823 JLINK_ReadReg(R0)  returns 0x00000000 (0000ms, 4644ms total)
T0F4C 3641:823 JLINK_WriteMem(0x20000164, 0x029C Bytes, ...) - Data: 08 2D DB DB 20 46 70 BD 00 08 01 40 21 B1 02 68 ... -- CPU_WriteMem(668 bytes @ 0x20000164)  returns 0x29C (0004ms, 4648ms total)
T0F4C 3641:827 JLINK_WriteMem(0x20000400, 0x0164 Bytes, ...) - Data: 9A 43 12 4B 0C 33 1A 60 42 79 10 2A 0E D1 1A 1F ... -- CPU_WriteMem(356 bytes @ 0x20000400)  returns 0x164 (0002ms, 4650ms total)
T0F4C 3641:829 JLINK_WriteReg(R0, 0x08001800)  returns 0x00 (0000ms, 4650ms total)
T0F4C 3641:829 JLINK_WriteReg(R1, 0x00000400)  returns 0x00 (0000ms, 4650ms total)
T0F4C 3641:829 JLINK_WriteReg(R2, 0x20000164)  returns 0x00 (0000ms, 4650ms total)
T0F4C 3641:829 JLINK_WriteReg(R3, 0x00000000)  returns 0x00 (0000ms, 4650ms total)
T0F4C 3641:829 JLINK_WriteReg(R4, 0x00000000)  returns 0x00 (0000ms, 4650ms total)
T0F4C 3641:829 JLINK_WriteReg(R5, 0x00000000)  returns 0x00 (0000ms, 4650ms total)
T0F4C 3641:829 JLINK_WriteReg(R6, 0x00000000)  returns 0x00 (0000ms, 4650ms total)
T0F4C 3641:829 JLINK_WriteReg(R7, 0x00000000)  returns 0x00 (0000ms, 4650ms total)
T0F4C 3641:829 JLINK_WriteReg(R8, 0x00000000)  returns 0x00 (0000ms, 4650ms total)
T0F4C 3641:829 JLINK_WriteReg(R9, 0x20000160)  returns 0x00 (0000ms, 4650ms total)
T0F4C 3641:829 JLINK_WriteReg(R10, 0x00000000)  returns 0x00 (0000ms, 4650ms total)
T0F4C 3641:829 JLINK_WriteReg(R11, 0x00000000)  returns 0x00 (0000ms, 4650ms total)
T0F4C 3641:829 JLINK_WriteReg(R12, 0x00000000)  returns 0x00 (0000ms, 4650ms total)
T0F4C 3641:829 JLINK_WriteReg(R13 (SP), 0x20001000)  returns 0x00 (0000ms, 4650ms total)
T0F4C 3641:829 JLINK_WriteReg(R14, 0x20000001)  returns 0x00 (0000ms, 4650ms total)
T0F4C 3641:829 JLINK_WriteReg(R15 (PC), 0x200000F4)  returns 0x00 (0000ms, 4650ms total)
T0F4C 3641:829 JLINK_WriteReg(XPSR, 0x01000000)  returns 0x00 (0000ms, 4650ms total)
T0F4C 3641:829 JLINK_WriteReg(MSP, 0x20001000)  returns 0x00 (0000ms, 4650ms total)
T0F4C 3641:829 JLINK_WriteReg(PSP, 0x20001000)  returns 0x00 (0000ms, 4650ms total)
T0F4C 3641:829 JLINK_WriteReg(CFBP, 0x00000000)  returns 0x00 (0000ms, 4650ms total)
T0F4C 3641:829 JLINK_SetBPEx(Addr = 0x20000000, Type = 0xFFFFFFF2)  returns 0x0000000B (0000ms, 4650ms total)
T0F4C 3641:829 JLINK_Go() -- CPU_ReadMem(4 bytes @ 0xE0001000) (0004ms, 4654ms total)
T0F4C 3641:833 JLINK_IsHalted()  returns FALSE (0001ms, 4655ms total)
T0F4C 3641:835 JLINK_IsHalted()  returns FALSE (0000ms, 4654ms total)
T0F4C 3641:837 JLINK_IsHalted()  returns FALSE (0000ms, 4654ms total)
T0F4C 3641:839 JLINK_IsHalted()  returns FALSE (0000ms, 4654ms total)
T0F4C 3641:841 JLINK_IsHalted()  returns FALSE (0000ms, 4654ms total)
T0F4C 3641:843 JLINK_IsHalted()  returns FALSE (0000ms, 4654ms total)
T0F4C 3641:845 JLINK_IsHalted()  returns FALSE (0000ms, 4654ms total)
T0F4C 3641:847 JLINK_IsHalted()  returns FALSE (0000ms, 4654ms total)
T0F4C 3641:849 JLINK_IsHalted()  returns FALSE (0000ms, 4654ms total)
T0F4C 3641:851 JLINK_IsHalted()  returns FALSE (0000ms, 4654ms total)
T0F4C 3641:855 JLINK_IsHalted()  returns FALSE (0000ms, 4654ms total)
T0F4C 3641:857 JLINK_IsHalted()  returns FALSE (0000ms, 4654ms total)
T0F4C 3641:859 JLINK_IsHalted()  returns FALSE (0000ms, 4654ms total)
T0F4C 3641:861 JLINK_IsHalted()  returns FALSE (0000ms, 4654ms total)
T0F4C 3641:863 JLINK_IsHalted()  returns FALSE (0000ms, 4654ms total)
T0F4C 3641:864 JLINK_IsHalted() -- CPU_ReadMem(2 bytes @ 0x20000000)  returns TRUE (0002ms, 4656ms total)
T0F4C 3641:866 JLINK_ReadReg(R15 (PC))  returns 0x20000000 (0000ms, 4654ms total)
T0F4C 3641:866 JLINK_ClrBPEx(BPHandle = 0x0000000B)  returns 0x00 (0000ms, 4654ms total)
T0F4C 3641:866 JLINK_ReadReg(R0)  returns 0x00000000 (0000ms, 4654ms total)
T0F4C 3641:867 JLINK_WriteMem(0x20000164, 0x029C Bytes, ...) - Data: 8D F8 02 00 10 20 8D F8 03 00 69 46 7C 48 00 F0 ... -- CPU_WriteMem(668 bytes @ 0x20000164)  returns 0x29C (0004ms, 4658ms total)
T0F4C 3641:871 JLINK_WriteMem(0x20000400, 0x0164 Bytes, ...) - Data: 9E 42 20 D1 83 00 4F F0 0F 0C 0C FA 03 F7 BC 43 ... -- CPU_WriteMem(356 bytes @ 0x20000400)  returns 0x164 (0002ms, 4660ms total)
T0F4C 3641:873 JLINK_WriteReg(R0, 0x08001C00)  returns 0x00 (0000ms, 4660ms total)
T0F4C 3641:873 JLINK_WriteReg(R1, 0x00000400)  returns 0x00 (0000ms, 4660ms total)
T0F4C 3641:873 JLINK_WriteReg(R2, 0x20000164)  returns 0x00 (0000ms, 4660ms total)
T0F4C 3641:873 JLINK_WriteReg(R3, 0x00000000)  returns 0x00 (0000ms, 4660ms total)
T0F4C 3641:873 JLINK_WriteReg(R4, 0x00000000)  returns 0x00 (0000ms, 4660ms total)
T0F4C 3641:873 JLINK_WriteReg(R5, 0x00000000)  returns 0x00 (0000ms, 4660ms total)
T0F4C 3641:873 JLINK_WriteReg(R6, 0x00000000)  returns 0x00 (0000ms, 4660ms total)
T0F4C 3641:873 JLINK_WriteReg(R7, 0x00000000)  returns 0x00 (0000ms, 4660ms total)
T0F4C 3641:873 JLINK_WriteReg(R8, 0x00000000)  returns 0x00 (0000ms, 4660ms total)
T0F4C 3641:873 JLINK_WriteReg(R9, 0x20000160)  returns 0x00 (0000ms, 4660ms total)
T0F4C 3641:873 JLINK_WriteReg(R10, 0x00000000)  returns 0x00 (0000ms, 4660ms total)
T0F4C 3641:873 JLINK_WriteReg(R11, 0x00000000)  returns 0x00 (0000ms, 4660ms total)
T0F4C 3641:873 JLINK_WriteReg(R12, 0x00000000)  returns 0x00 (0000ms, 4660ms total)
T0F4C 3641:873 JLINK_WriteReg(R13 (SP), 0x20001000)  returns 0x00 (0000ms, 4660ms total)
T0F4C 3641:873 JLINK_WriteReg(R14, 0x20000001)  returns 0x00 (0000ms, 4660ms total)
T0F4C 3641:873 JLINK_WriteReg(R15 (PC), 0x200000F4)  returns 0x00 (0000ms, 4660ms total)
T0F4C 3641:873 JLINK_WriteReg(XPSR, 0x01000000)  returns 0x00 (0000ms, 4660ms total)
T0F4C 3641:873 JLINK_WriteReg(MSP, 0x20001000)  returns 0x00 (0000ms, 4660ms total)
T0F4C 3641:873 JLINK_WriteReg(PSP, 0x20001000)  returns 0x00 (0000ms, 4660ms total)
T0F4C 3641:873 JLINK_WriteReg(CFBP, 0x00000000)  returns 0x00 (0000ms, 4660ms total)
T0F4C 3641:873 JLINK_SetBPEx(Addr = 0x20000000, Type = 0xFFFFFFF2)  returns 0x0000000C (0000ms, 4660ms total)
T0F4C 3641:873 JLINK_Go() -- CPU_ReadMem(4 bytes @ 0xE0001000) (0003ms, 4663ms total)
T0F4C 3641:876 JLINK_IsHalted()  returns FALSE (0001ms, 4664ms total)
T0F4C 3641:879 JLINK_IsHalted()  returns FALSE (0000ms, 4663ms total)
T0F4C 3641:881 JLINK_IsHalted()  returns FALSE (0000ms, 4663ms total)
T0F4C 3641:883 JLINK_IsHalted()  returns FALSE (0000ms, 4663ms total)
T0F4C 3641:885 JLINK_IsHalted()  returns FALSE (0000ms, 4663ms total)
T0F4C 3641:887 JLINK_IsHalted()  returns FALSE (0000ms, 4663ms total)
T0F4C 3641:889 JLINK_IsHalted()  returns FALSE (0000ms, 4663ms total)
T0F4C 3641:891 JLINK_IsHalted()  returns FALSE (0000ms, 4663ms total)
T0F4C 3641:893 JLINK_IsHalted()  returns FALSE (0001ms, 4664ms total)
T0F4C 3641:896 JLINK_IsHalted()  returns FALSE (0000ms, 4663ms total)
T0F4C 3641:898 JLINK_IsHalted()  returns FALSE (0000ms, 4663ms total)
T0F4C 3641:900 JLINK_IsHalted()  returns FALSE (0000ms, 4663ms total)
T0F4C 3641:902 JLINK_IsHalted()  returns FALSE (0000ms, 4663ms total)
T0F4C 3641:904 JLINK_IsHalted()  returns FALSE (0000ms, 4663ms total)
T0F4C 3641:907 JLINK_IsHalted()  returns FALSE (0000ms, 4663ms total)
T0F4C 3641:908 JLINK_IsHalted() -- CPU_ReadMem(2 bytes @ 0x20000000)  returns TRUE (0002ms, 4665ms total)
T0F4C 3641:910 JLINK_ReadReg(R15 (PC))  returns 0x20000000 (0001ms, 4664ms total)
T0F4C 3641:911 JLINK_ClrBPEx(BPHandle = 0x0000000C)  returns 0x00 (0000ms, 4664ms total)
T0F4C 3641:911 JLINK_ReadReg(R0)  returns 0x00000000 (0000ms, 4664ms total)
T0F4C 3641:914 JLINK_WriteMem(0x20000164, 0x029C Bytes, ...) - Data: 00 E0 00 20 70 47 41 61 70 47 01 61 70 47 4F F6 ... -- CPU_WriteMem(668 bytes @ 0x20000164)  returns 0x29C (0004ms, 4668ms total)
T0F4C 3641:918 JLINK_WriteMem(0x20000400, 0x0164 Bytes, ...) - Data: A0 68 A8 42 F8 D8 14 E0 0A A0 01 F0 21 FF 10 E0 ... -- CPU_WriteMem(356 bytes @ 0x20000400)  returns 0x164 (0002ms, 4670ms total)
T0F4C 3641:920 JLINK_WriteReg(R0, 0x08002000)  returns 0x00 (0000ms, 4670ms total)
T0F4C 3641:920 JLINK_WriteReg(R1, 0x00000400)  returns 0x00 (0000ms, 4670ms total)
T0F4C 3641:920 JLINK_WriteReg(R2, 0x20000164)  returns 0x00 (0000ms, 4670ms total)
T0F4C 3641:920 JLINK_WriteReg(R3, 0x00000000)  returns 0x00 (0001ms, 4671ms total)
T0F4C 3641:921 JLINK_WriteReg(R4, 0x00000000)  returns 0x00 (0000ms, 4671ms total)
T0F4C 3641:921 JLINK_WriteReg(R5, 0x00000000)  returns 0x00 (0000ms, 4671ms total)
T0F4C 3641:921 JLINK_WriteReg(R6, 0x00000000)  returns 0x00 (0000ms, 4671ms total)
T0F4C 3641:921 JLINK_WriteReg(R7, 0x00000000)  returns 0x00 (0000ms, 4671ms total)
T0F4C 3641:921 JLINK_WriteReg(R8, 0x00000000)  returns 0x00 (0000ms, 4671ms total)
T0F4C 3641:921 JLINK_WriteReg(R9, 0x20000160)  returns 0x00 (0000ms, 4671ms total)
T0F4C 3641:921 JLINK_WriteReg(R10, 0x00000000)  returns 0x00 (0000ms, 4671ms total)
T0F4C 3641:921 JLINK_WriteReg(R11, 0x00000000)  returns 0x00 (0000ms, 4671ms total)
T0F4C 3641:921 JLINK_WriteReg(R12, 0x00000000)  returns 0x00 (0001ms, 4672ms total)
T0F4C 3641:922 JLINK_WriteReg(R13 (SP), 0x20001000)  returns 0x00 (0000ms, 4672ms total)
T0F4C 3641:922 JLINK_WriteReg(R14, 0x20000001)  returns 0x00 (0000ms, 4672ms total)
T0F4C 3641:922 JLINK_WriteReg(R15 (PC), 0x200000F4)  returns 0x00 (0000ms, 4672ms total)
T0F4C 3641:922 JLINK_WriteReg(XPSR, 0x01000000)  returns 0x00 (0000ms, 4672ms total)
T0F4C 3641:922 JLINK_WriteReg(MSP, 0x20001000)  returns 0x00 (0000ms, 4672ms total)
T0F4C 3641:922 JLINK_WriteReg(PSP, 0x20001000)  returns 0x00 (0000ms, 4672ms total)
T0F4C 3641:922 JLINK_WriteReg(CFBP, 0x00000000)  returns 0x00 (0000ms, 4672ms total)
T0F4C 3641:922 JLINK_SetBPEx(Addr = 0x20000000, Type = 0xFFFFFFF2)  returns 0x0000000D (0000ms, 4672ms total)
T0F4C 3641:922 JLINK_Go() -- CPU_ReadMem(4 bytes @ 0xE0001000) (0004ms, 4676ms total)
T0F4C 3641:926 JLINK_IsHalted()  returns FALSE (0000ms, 4676ms total)
T0F4C 3641:934 JLINK_IsHalted()  returns FALSE (0000ms, 4676ms total)
T0F4C 3641:936 JLINK_IsHalted()  returns FALSE (0001ms, 4677ms total)
T0F4C 3641:939 JLINK_IsHalted()  returns FALSE (0000ms, 4676ms total)
T0F4C 3641:941 JLINK_IsHalted()  returns FALSE (0001ms, 4677ms total)
T0F4C 3641:944 JLINK_IsHalted()  returns FALSE (0000ms, 4676ms total)
T0F4C 3641:946 JLINK_IsHalted()  returns FALSE (0000ms, 4676ms total)
T0F4C 3641:948 JLINK_IsHalted()  returns FALSE (0000ms, 4676ms total)
T0F4C 3641:951 JLINK_IsHalted()  returns FALSE (0000ms, 4676ms total)
T0F4C 3641:954 JLINK_IsHalted()  returns FALSE (0000ms, 4676ms total)
T0F4C 3641:956 JLINK_IsHalted() -- CPU_ReadMem(2 bytes @ 0x20000000)  returns TRUE (0003ms, 4679ms total)
T0F4C 3641:959 JLINK_ReadReg(R15 (PC))  returns 0x20000000 (0001ms, 4677ms total)
T0F4C 3641:960 JLINK_ClrBPEx(BPHandle = 0x0000000D)  returns 0x00 (0000ms, 4677ms total)
T0F4C 3641:960 JLINK_ReadReg(R0)  returns 0x00000000 (0000ms, 4677ms total)
T0F4C 3641:962 JLINK_WriteMem(0x20000164, 0x029C Bytes, ...) - Data: 01 D1 03 20 C4 E7 45 F0 C0 05 50 46 FD F7 EC FE ... -- CPU_WriteMem(668 bytes @ 0x20000164)  returns 0x29C (0004ms, 4681ms total)
